I (349) main: ADS131M0X initialized (standby mode)
I (349) main: ========================================
I (349) main: ADS131M04 Integration Test Suite
I (349) main: ========================================
I (349) main: ── test_error_null_param ──
I (359) main:   null_param: 23/23 passed
I (359) main: [PASS] test_error_null_param
I (359) main: ── test_error_not_initialized ──
I (369) main:   not_initialized: 10/10 passed
I (369) main: [PASS] test_error_not_initialized
I (379) main: ── test_error_invalid_channel ──
I (379) main: [PASS] test_error_invalid_channel
I (389) main: ── test_chip_id_readback ──
I (389) SPI: TX [18]: A0 00 00 00 00 00 00 00 00 00 00 00 00 00 00 00 00 00 
I (399) SPI: RX [18]: 24 05 00 00 00 00 00 00 00 00 00 00 00 00 00 CE A1 00
I (409) main:   Chip ID: 0x2405 (expected 0x24xx)
I (409) main: [PASS] test_chip_id_readback
I (409) main: ── test_reset_default_registers ──
I (419) SPI: TX [18]: 00 11 00 00 00 00 00 00 00 00 00 00 00 00 00 00 00 00 
I (439) SPI: RX [18]: FF 24 00 F7 A8 66 7F FF FF 7F FF FF F2 57 68 27 C4 00
I (439) SPI: TX [18]: A1 00 00 00 00 00 00 00 00 00 00 00 00 00 00 00 00 00
I (439) SPI: RX [18]: 05 10 00 0E 16 73 7F FF FF 7F FF FF F2 51 79 AB 4B 00 
I (449) SPI: TX [18]: A1 80 00 00 00 00 00 00 00 00 00 00 00 00 00 00 00 00
I (449) SPI: RX [18]: 0F 0E 00 0F BC 88 7F FF FF 7F FF FF F2 50 17 BB DC 00 
I (459) SPI: TX [18]: A2 00 00 00 00 00 00 00 00 00 00 00 00 00 00 00 00 00
I (469) SPI: RX [18]: 00 00 00 FB AA BD 7F FF FF 7F FF FF F2 4F 64 B1 5C 00 
I (469) SPI: TX [18]: A3 00 00 00 00 00 00 00 00 00 00 00 00 00 00 00 00 00
I (479) SPI: RX [18]: 06 00 00 F0 05 81 7F FF FF 7F FF FF F2 4F DD AD F4 00
I (489) SPI: TX [18]: A3 80 00 00 00 00 00 00 00 00 00 00 00 00 00 00 00 00 
I (489) SPI: RX [18]: 00 00 00 04 1A 24 7F FF FF 7F FF FF F2 51 1C 70 0C 00
I (499) SPI: TX [18]: A4 00 00 00 00 00 00 00 00 00 00 00 00 00 00 00 00 00 
I (509) SPI: RX [18]: 00 00 00 0F B9 89 7F FF FF 7F FF FF F2 4F 18 00 EB 00
I (509) SPI: TX [18]: A4 80 00 00 00 00 00 00 00 00 00 00 00 00 00 00 00 00 
I (519) SPI: RX [18]: 00 00 00 FB 9F D9 7F FF FF 7F FF FF F2 4F CB 65 32 00
I (529) SPI: TX [18]: A6 00 00 00 00 00 00 00 00 00 00 00 00 00 00 00 00 00
I (529) SPI: RX [18]: 80 00 00 F1 9B F5 7F FF FF 7F FF FF F2 50 24 BC DA 00 
I (539) SPI: TX [18]: A7 00 00 00 00 00 00 00 00 00 00 00 00 00 00 00 00 00
I (549) SPI: RX [18]: 00 00 00 F7 BD D3 7F FF FF 7F FF FF F2 50 30 A0 7F 00 
I (549) SPI: TX [18]: A9 80 00 00 00 00 00 00 00 00 00 00 00 00 00 00 00 00
I (559) SPI: RX [18]: 00 00 00 0E 22 D9 7F FF FF 7F FF FF F2 50 2D 96 4A 00 
I (569) SPI: TX [18]: AC 00 00 00 00 00 00 00 00 00 00 00 00 00 00 00 00 00
I (569) SPI: RX [18]: 00 00 00 08 00 EA 7F FF FF 7F FF FF F2 50 3D 99 D8 00
I (579) main: [PASS] test_reset_default_registers
I (589) main: ── test_global_config_readback ──
I (589) SPI: TX [18]: 61 01 00 01 07 00 0F 29 00 00 00 00 00 00 00 00 00 00 
I (599) SPI: RX [18]: 41 01 00 C1 A7 86 6B AB 28 6B AB 28 73 98 DD EB C0 00
I (599) SPI: TX [18]: 63 00 00 07 A5 00 00 00 00 00 00 00 00 00 00 00 00 00
I (609) SPI: RX [18]: 43 00 00 00 00 00 00 00 00 00 00 00 00 00 00 87 EF 00 
I (619) SPI: TX [18]: 63 81 00 12 34 00 56 07 00 00 00 00 00 00 00 00 00 00
I (619) SPI: RX [18]: 43 81 00 10 AD F1 7F FF FF 7F FF FF F2 78 34 29 37 00 
I (629) SPI: TX [18]: A1 00 00 00 00 00 00 00 00 00 00 00 00 00 00 00 00 00
I (639) SPI: RX [18]: 01 07 00 08 E4 5F 38 13 EB 38 13 EB FB 3C D9 2D A2 00 
I (639) SPI: TX [18]: A1 80 00 00 00 00 00 00 00 00 00 00 00 00 00 00 00 00
I (649) SPI: RX [18]: 0F 29 00 F0 EC 28 13 CC 9A 13 CC 9A FE 4A CF 2E EB 00
I (659) SPI: TX [18]: A3 00 00 00 00 00 00 00 00 00 00 00 00 00 00 00 00 00 
I (659) SPI: RX [18]: 07 A5 00 F6 6F 79 06 FD 8E 06 FD 8E FF 69 AD EE 34 00
I (669) SPI: TX [18]: A3 80 00 00 00 00 00 00 00 00 00 00 00 00 00 00 00 00 
I (679) SPI: RX [18]: 12 34 00 0A AF 08 02 72 E8 02 72 E8 FF C9 2A 53 8F 00
I (689) SPI: TX [18]: A4 00 00 00 00 00 00 00 00 00 00 00 00 00 00 00 00 00 
I (689) SPI: RX [18]: 56 07 00 0E 3B D8 00 DD 57 00 DD 57 FF E6 EB 69 95 00
I (699) SPI: TX [18]: 00 11 00 00 00 00 00 00 00 00 00 00 00 00 00 00 00 00
I (719) SPI: RX [18]: FF 24 00 06 AC 3D 7F FF FF 7F FF FF F2 57 94 68 7C 00 
I (719) main: [PASS] test_global_config_readback
I (719) main: ── test_per_channel_config_readback ──
I (719) SPI: TX [18]: A1 80 00 00 00 00 00 00 00 00 00 00 00 00 00 00 00 00 
I (729) SPI: RX [18]: 0F 0E 00 0F 48 29 7F FF FF 7F FF FF F2 50 57 22 1B 00
I (739) SPI: TX [18]: 61 80 00 0F 0E 00 00 00 00 00 00 00 00 00 00 00 00 00 
I (739) SPI: RX [18]: 41 80 00 05 95 9D 7F FF FF 7F FF FF F2 50 80 BF CE 00
I (749) SPI: TX [18]: A2 00 00 00 00 00 00 00 00 00 00 00 00 00 00 00 00 00 
I (759) SPI: RX [18]: 00 00 00 F0 73 1F 7F FF FF 7F FF FF F2 50 E2 AC 5E 00
I (759) SPI: TX [18]: 62 00 00 00 02 00 00 00 00 00 00 00 00 00 00 00 00 00 
I (769) SPI: RX [18]: 42 00 00 F0 FB 99 7F FF FF 7F FF FF F2 4F B8 9F D3 00
I (779) SPI: TX [18]: 64 80 00 01 45 00 00 00 00 00 00 00 00 00 00 00 00 00
I (779) SPI: RX [18]: 44 80 00 00 00 00 7F FF FF 7F FF FF F2 4E 82 29 1F 00 
I (789) SPI: TX [18]: 65 03 00 0A 0B 00 0C 00 00 81 00 00 00 00 00 00 00 00
I (799) SPI: RX [18]: 45 03 00 00 03 04 7F FF FF 7F FF FF F2 50 78 E6 D8 00 
I (799) SPI: TX [18]: A1 80 00 00 00 00 00 00 00 00 00 00 00 00 00 00 00 00
I (809) SPI: RX [18]: 0F 0E 00 F5 E4 0E 7F FF FF 7F FF FF F2 50 60 A2 12 00 
I (819) SPI: TX [18]: 61 80 00 0F 0E 00 00 00 00 00 00 00 00 00 00 00 00 00
I (819) SPI: RX [18]: 41 80 00 F5 E4 04 7F FF FF 7F FF FF F2 50 B2 B1 B9 00 
I (829) SPI: TX [18]: A2 00 00 00 00 00 00 00 00 00 00 00 00 00 00 00 00 00
I (839) SPI: RX [18]: 00 02 00 F5 E4 05 7F FF FF 7F FF FF F2 4F 6E E2 09 00
I (839) SPI: TX [18]: 62 00 00 00 32 00 00 00 00 00 00 00 00 00 00 00 00 00 
I (849) SPI: RX [18]: 42 00 00 F5 E4 52 7F FF FF 7F FF FF F2 4E D6 9C 8F 00
I (859) SPI: TX [18]: 67 00 00 02 82 00 00 00 00 00 00 00 00 00 00 00 00 00 
I (859) SPI: RX [18]: 47 00 00 F5 E4 A4 00 00 00 7F FF FF F2 72 03 38 5A 00
I (869) SPI: TX [18]: 67 83 00 11 22 00 33 00 00 82 00 00 00 00 00 00 00 00 
I (879) SPI: RX [18]: 47 83 00 F5 E4 96 10 95 FA 7F FF FF F2 76 29 DF D9 00
I (879) SPI: TX [18]: A1 80 00 00 00 00 00 00 00 00 00 00 00 00 00 00 00 00 
I (889) SPI: RX [18]: 0F 0E 00 F5 E3 E8 FF 70 18 7F FF FF F2 77 2D CB 7D 00
I (899) SPI: TX [18]: 61 80 00 0F 0E 00 00 00 00 00 00 00 00 00 00 00 00 00
I (899) SPI: RX [18]: 41 80 00 F5 E3 B1 FF 71 A4 7F FF FF F2 76 2D B0 57 00 
I (909) SPI: TX [18]: A2 00 00 00 00 00 00 00 00 00 00 00 00 00 00 00 00 00
I (919) SPI: RX [18]: 00 32 00 F5 E4 33 FF 72 6D 7F FF FF F2 76 2A 38 6E 00 
I (919) SPI: TX [18]: 62 00 00 04 32 00 00 00 00 00 00 00 00 00 00 00 00 00
I (929) SPI: RX [18]: 42 00 00 F5 E3 DE FF 72 AD 7F FF FF F2 76 6B D2 11 00 
I (939) SPI: TX [18]: 69 80 00 FF 47 00 00 00 00 00 00 00 00 00 00 00 00 00
I (949) SPI: RX [18]: 49 80 00 F5 E4 26 FF 72 81 00 00 00 F2 DE 16 8F AF 00 
I (949) SPI: TX [18]: 6A 03 00 FE DC 00 BA 00 00 90 00 00 00 00 00 00 00 00
I (959) SPI: RX [18]: 4A 03 00 F5 E3 EB FF 71 52 EF 40 F4 F2 E5 68 9C BF 00
I (969) SPI: TX [18]: A1 80 00 00 00 00 00 00 00 00 00 00 00 00 00 00 00 00 
I (969) SPI: RX [18]: 0F 0E 00 F5 E4 7A FF 71 F3 EE 74 10 F2 E5 1E 35 61 00
I (979) SPI: TX [18]: 61 80 00 0F 0E 00 00 00 00 00 00 00 00 00 00 00 00 00 
I (989) SPI: RX [18]: 41 80 00 F5 E4 03 FF 71 E7 EE 73 54 F2 E4 87 B7 1E 00
I (989) SPI: TX [18]: A2 00 00 00 00 00 00 00 00 00 00 00 00 00 00 00 00 00 
I (999) SPI: RX [18]: 04 32 00 F5 E4 53 FF 72 C8 EE 75 C1 F2 E5 61 81 BD 00
I (1009) SPI: TX [18]: 62 00 00 54 32 00 00 00 00 00 00 00 00 00 00 00 00 00
I (1009) SPI: RX [18]: 42 00 00 F5 E4 49 FF 71 A8 EE 74 BC F2 E5 82 B7 F2 00 
I (1019) SPI: TX [18]: 6C 00 00 00 00 00 00 00 00 00 00 00 00 00 00 00 00 00
I (1029) SPI: RX [18]: 4C 00 00 F5 E4 42 FF 72 2B EE 6D 5A 6F DB A8 90 D9 00 
I (1029) SPI: TX [18]: 6C 83 00 00 00 00 00 00 00 80 00 00 00 00 00 00 00 00
I (1039) SPI: RX [18]: 4C 83 00 F5 E3 C3 FF 73 7C EE 6F B1 6F A9 F1 27 59 00 
I (1049) SPI: TX [18]: A2 00 00 00 00 00 00 00 00 00 00 00 00 00 00 00 00 00
I (1049) SPI: RX [18]: 54 32 00 F5 E4 0A FF 72 23 EE 6F 2D 70 09 5A 7B 81 00 
I (1059) SPI: TX [18]: A4 80 00 00 00 00 00 00 00 00 00 00 00 00 00 00 00 00
I (1069) SPI: RX [18]: 01 45 00 F5 E4 C1 FF 73 18 EE 71 55 70 59 8F 8B 35 00
I (1069) SPI: TX [18]: A5 00 00 00 00 00 00 00 00 00 00 00 00 00 00 00 00 00 
I (1079) SPI: RX [18]: 0A 0B 00 F5 E4 58 FF 73 B7 EE 70 34 70 0F FE D1 34 00
I (1089) SPI: TX [18]: A5 80 00 00 00 00 00 00 00 00 00 00 00 00 00 00 00 00 
I (1099) SPI: RX [18]: 0C 00 00 F5 E3 D2 FF 73 CB EE 71 F5 70 05 70 1E 19 00
I (1099) SPI: TX [18]: A6 00 00 00 00 00 00 00 00 00 00 00 00 00 00 00 00 00 
I (1109) SPI: RX [18]: 81 00 00 F5 E4 E8 FF 74 5F EE 70 A5 6F 3E 4C 4C 33 00
I (1119) SPI: TX [18]: A6 80 00 00 00 00 00 00 00 00 00 00 00 00 00 00 00 00
I (1119) SPI: RX [18]: 00 00 00 F5 E4 D9 FF 73 1B EE 70 97 70 19 61 6B 5C 00
I (1129) SPI: TX [18]: A7 00 00 00 00 00 00 00 00 00 00 00 00 00 00 00 00 00
I (1139) SPI: RX [18]: 02 82 00 F5 E4 39 FF 72 8F EE 70 3B 6F A5 A9 FB BF 00 
I (1139) SPI: TX [18]: A7 80 00 00 00 00 00 00 00 00 00 00 00 00 00 00 00 00
I (1149) SPI: RX [18]: 11 22 00 F5 E3 FE FF 73 C7 EE 71 55 70 2F 0F 29 AE 00
I (1159) SPI: TX [18]: A8 00 00 00 00 00 00 00 00 00 00 00 00 00 00 00 00 00 
I (1159) SPI: RX [18]: 33 00 00 F5 E4 3D FF 72 DD EE 70 B8 70 41 AC A5 45 00
I (1169) SPI: TX [18]: A8 80 00 00 00 00 00 00 00 00 00 00 00 00 00 00 00 00 
I (1179) SPI: RX [18]: 82 00 00 F5 E4 DA FF 73 14 EE 72 28 70 1F 37 B8 98 00
I (1179) SPI: TX [18]: A9 00 00 00 00 00 00 00 00 00 00 00 00 00 00 00 00 00
I (1189) SPI: RX [18]: 00 00 00 F5 E3 4E FF 72 BA EE 71 2E 70 07 30 D6 5B 00 
I (1199) SPI: TX [18]: A9 80 00 00 00 00 00 00 00 00 00 00 00 00 00 00 00 00
I (1209) SPI: RX [18]: FF 47 00 F5 E4 B8 FF 71 EC EE 73 0D 6F E0 9D F7 E4 00 
I (1209) SPI: TX [18]: AA 00 00 00 00 00 00 00 00 00 00 00 00 00 00 00 00 00
I (1219) SPI: RX [18]: FE DC 00 F5 E3 FA FF 73 84 EE 70 16 70 38 0A 6F 8D 00 
I (1229) SPI: TX [18]: AA 80 00 00 00 00 00 00 00 00 00 00 00 00 00 00 00 00
I (1229) SPI: RX [18]: BA 00 00 F5 E3 FD FF 74 18 EE 73 34 6F C4 60 A7 23 00 
I (1239) SPI: TX [18]: AB 00 00 00 00 00 00 00 00 00 00 00 00 00 00 00 00 00
I (1249) SPI: RX [18]: 90 00 00 F5 E4 6A FF 73 DF EE 73 48 70 0F 78 86 85 00
I (1249) SPI: TX [18]: AB 80 00 00 00 00 00 00 00 00 00 00 00 00 00 00 00 00 
I (1259) SPI: RX [18]: 00 00 00 F5 E2 EB FF 73 4F EE 73 DE 6F EC 49 97 DD 00
I (1269) SPI: TX [18]: AC 00 00 00 00 00 00 00 00 00 00 00 00 00 00 00 00 00 
I (1269) SPI: RX [18]: 00 00 00 F5 E3 FB FF 73 83 EE 71 C3 6F C7 B8 BC FC 00
I (1279) SPI: TX [18]: AC 80 00 00 00 00 00 00 00 00 00 00 00 00 00 00 00 00 
I (1289) SPI: RX [18]: 00 00 00 F5 E5 33 FF 73 E5 EE 73 11 6F 8A 8F BF 9E 00
I (1289) SPI: TX [18]: AD 00 00 00 00 00 00 00 00 00 00 00 00 00 00 00 00 00 
I (1299) SPI: RX [18]: 00 00 00 F5 E3 D2 FF 72 C2 EE 73 E6 6F 82 D3 62 DD 00
I (1309) SPI: TX [18]: AD 80 00 00 00 00 00 00 00 00 00 00 00 00 00 00 00 00 
I (1309) SPI: RX [18]: 80 00 00 F5 E3 82 FF 74 88 EE 72 78 6F D0 C0 FA 31 00
I (1319) SPI: TX [18]: AE 00 00 00 00 00 00 00 00 00 00 00 00 00 00 00 00 00
I (1329) SPI: RX [18]: 00 00 00 F5 E4 0C FF 71 D0 EE 71 BF 6F 87 C2 D0 EB 00 
I (1339) SPI: TX [18]: 00 11 00 00 00 00 00 00 00 00 00 00 00 00 00 00 00 00
I (1349) SPI: RX [18]: FF 24 00 F7 F1 B7 7F FF FF 7F FF FF F2 59 4E 46 BD 00 
I (1349) main: [PASS] test_per_channel_config_readback
I (1349) main: ── test_standby_command ──
I (1359) SPI: TX [18]: 00 33 00 00 00 00 00 00 00 00 00 00 00 00 00 00 00 00 
I (1369) SPI: RX [18]: 00 33 00 F7 F4 62 7F FF FF 7F FF FF F2 51 EA 37 1A 00
I (1369) SPI: TX [18]: 00 22 00 00 00 00 00 00 00 00 00 00 00 00 00 00 00 00
I (1379) SPI: RX [18]: 00 22 00 00 00 00 00 00 00 00 00 00 00 00 00 25 CE 00 
I (1389) main: [PASS] test_standby_command
I (1389) main: ── test_wakeup_command ──
I (1389) SPI: TX [18]: 00 33 00 00 00 00 00 00 00 00 00 00 00 00 00 00 00 00 
I (1399) SPI: RX [18]: 00 33 00 00 00 00 00 00 00 00 00 00 00 00 00 98 58 00
I (1409) SPI: TX [18]: 00 22 00 00 00 00 00 00 00 00 00 00 00 00 00 00 00 00 
I (1409) SPI: RX [18]: 00 22 00 00 00 00 00 00 00 00 00 00 00 00 00 25 CE 00
I (1419) main: [PASS] test_wakeup_command
I (1419) main: ── test_lock_rejects_writes ──
I (1429) SPI: TX [18]: 05 55 00 00 00 00 00 00 00 00 00 00 00 00 00 00 00 00
I (1439) SPI: RX [18]: 05 55 00 00 00 00 00 00 00 00 00 00 00 00 00 10 01 00
I (1439) SPI: TX [18]: A0 80 00 00 00 00 00 00 00 00 00 00 00 00 00 00 00 00 
I (1449) SPI: RX [18]: 85 00 00 00 00 00 00 00 00 00 00 00 00 00 00 2F 9F 00
I (1459) main: [PASS] test_lock_rejects_writes
I (1459) main: ── test_unlock_restores_writes ──
I (1469) SPI: TX [18]: 06 55 00 00 00 00 00 00 00 00 00 00 00 00 00 00 00 00
I (1469) SPI: RX [18]: 06 55 00 00 00 00 00 00 00 00 00 00 00 00 00 F3 24 00 
I (1479) SPI: TX [18]: A0 80 00 00 00 00 00 00 00 00 00 00 00 00 00 00 00 00
I (1489) SPI: RX [18]: 05 00 00 00 00 00 00 00 00 00 00 00 00 00 00 7B 8D 00 
I (1489) SPI: TX [18]: 63 00 00 06 00 00 00 00 00 00 00 00 00 00 00 00 00 00
I (1499) SPI: RX [18]: 43 00 00 00 00 00 00 00 00 00 00 00 00 00 00 87 EF 00
I (1509) SPI: TX [18]: 00 11 00 00 00 00 00 00 00 00 00 00 00 00 00 00 00 00 
I (1519) SPI: RX [18]: FF 24 00 E4 D0 40 7F FF FF 7F FF FF 04 4F 60 1C 85 00
I (1519) main: [PASS] test_unlock_restores_writes
I (1529) main: ── test_error_locked_write ──
I (1529) SPI: TX [18]: 05 55 00 00 00 00 00 00 00 00 00 00 00 00 00 00 00 00
I (1539) SPI: RX [18]: 05 55 00 EF AE DC 7F FF FF 7F FF FF F2 50 8D DF 45 00 
I (1539) SPI: TX [18]: A3 00 00 00 00 00 00 00 00 00 00 00 00 00 00 00 00 00
I (1549) SPI: RX [18]: 06 00 00 02 96 B2 7F FF FF 7F FF FF F2 51 57 2D 88 00 
I (1559) SPI: TX [18]: 06 55 00 00 00 00 00 00 00 00 00 00 00 00 00 00 00 00
I (1559) SPI: RX [18]: 06 55 00 0D 45 50 7F FF FF 7F FF FF F2 50 31 FB A7 00 
I (1569) SPI: TX [18]: 00 11 00 00 00 00 00 00 00 00 00 00 00 00 00 00 00 00
I (1589) SPI: RX [18]: FF 24 00 04 C6 A7 7F FF FF 7F FF FF F2 58 AA A1 C4 00 
I (1589) main: [PASS] test_error_locked_write
I (1589) main: ── test_shorted_inputs_near_zero ──
I (1589) SPI: TX [18]: A1 80 00 00 00 00 00 00 00 00 00 00 00 00 00 00 00 00 
I (1599) SPI: RX [18]: 0F 0E 00 F0 3A B9 7F FF FF 7F FF FF F2 52 31 1E 68 00
I (1609) SPI: TX [18]: 61 80 00 0F 0E 00 00 00 00 00 00 00 00 00 00 00 00 00
I (1619) SPI: RX [18]: 41 80 00 F8 55 7A 7F FF FF 7F FF FF F2 50 7D C4 C2 00 
I (1619) SPI: TX [18]: A2 00 00 00 00 00 00 00 00 00 00 00 00 00 00 00 00 00
I (1629) SPI: RX [18]: 00 00 00 04 CF 37 7F FF FF 7F FF FF F2 50 D3 5F 8B 00 
I (1639) SPI: TX [18]: 62 00 00 00 00 00 00 00 00 00 00 00 00 00 00 00 00 00
I (1639) SPI: RX [18]: 42 00 00 0E 79 33 7F FF FF 7F FF FF F2 50 2F 21 A6 00 
I (1649) SPI: TX [18]: 64 80 00 00 01 00 00 00 00 00 00 00 00 00 00 00 00 00
I (1659) SPI: RX [18]: 44 80 00 0F 82 3B 7F FF FF 7F FF FF F2 50 6B 09 81 00 
I (1659) SPI: TX [18]: 65 03 00 00 00 00 00 00 00 80 00 00 00 00 00 00 00 00
I (1669) SPI: RX [18]: 45 03 00 00 00 81 7F FF FF 7F FF FF F2 50 8E 37 BF 00
I (1679) SPI: TX [18]: A1 80 00 00 00 00 00 00 00 00 00 00 00 00 00 00 00 00 
I (1679) SPI: RX [18]: 0F 0E 00 00 00 75 7F FF FF 7F FF FF F2 52 05 CA 84 00
I (1689) SPI: TX [18]: 61 80 00 0F 0E 00 00 00 00 00 00 00 00 00 00 00 00 00 
I (1699) SPI: RX [18]: 41 80 00 00 00 70 7F FF FF 7F FF FF F2 50 DC 58 97 00
I (1699) SPI: TX [18]: A2 00 00 00 00 00 00 00 00 00 00 00 00 00 00 00 00 00 
I (1709) SPI: RX [18]: 00 00 00 00 00 A5 7F FF FF 7F FF FF F2 50 EB 0D 60 00
I (1719) SPI: TX [18]: 62 00 00 00 00 00 00 00 00 00 00 00 00 00 00 00 00 00
I (1719) SPI: RX [18]: 42 00 00 00 00 BD 7F FF FF 7F FF FF F2 50 87 19 47 00 
I (1729) SPI: TX [18]: 67 00 00 00 01 00 00 00 00 00 00 00 00 00 00 00 00 00
I (1739) SPI: RX [18]: 47 00 00 00 00 8E 7F FF FF 7F FF FF F2 50 B4 36 6D 00 
I (1749) SPI: TX [18]: 67 83 00 00 00 00 00 00 00 80 00 00 00 00 00 00 00 00
I (1749) SPI: RX [18]: 47 83 00 00 00 6E 00 0C CC 7F FF FF F2 52 94 36 EB 00 
I (1759) SPI: TX [18]: A1 80 00 00 00 00 00 00 00 00 00 00 00 00 00 00 00 00
I (1769) SPI: RX [18]: 0F 0E 00 00 00 69 00 0C FB 7F FF FF F2 52 BB 88 C8 00 
I (1769) SPI: TX [18]: 61 80 00 0F 0E 00 00 00 00 00 00 00 00 00 00 00 00 00
I (1779) SPI: RX [18]: 41 80 00 00 00 AD 00 0C C7 7F FF FF F2 52 0A 63 9A 00
I (1789) SPI: TX [18]: A2 00 00 00 00 00 00 00 00 00 00 00 00 00 00 00 00 00 
I (1789) SPI: RX [18]: 00 00 00 00 00 AF 00 0C F9 7F FF FF F2 51 FE FF 56 00
I (1799) SPI: TX [18]: 62 00 00 00 00 00 00 00 00 00 00 00 00 00 00 00 00 00 
I (1809) SPI: RX [18]: 42 00 00 00 00 18 00 0D 1F 7F FF FF F2 51 F3 E2 6B 00
I (1809) SPI: TX [18]: 69 80 00 00 01 00 00 00 00 00 00 00 00 00 00 00 00 00 
I (1819) SPI: RX [18]: 49 80 00 00 00 88 00 0D 27 7F FF FF F2 51 E5 B9 00 00
I (1829) SPI: TX [18]: 6A 03 00 00 00 00 00 00 00 80 00 00 00 00 00 00 00 00
I (1829) SPI: RX [18]: 4A 03 00 00 00 8F 00 0C E7 FF FD 3F F2 55 E9 83 8B 00 
I (1839) SPI: TX [18]: A1 80 00 00 00 00 00 00 00 00 00 00 00 00 00 00 00 00
I (1849) SPI: RX [18]: 0F 0E 00 00 00 B3 00 0D 1E FF FC D6 F2 55 4F F0 E1 00 
I (1859) SPI: TX [18]: 61 80 00 0F 0E 00 00 00 00 00 00 00 00 00 00 00 00 00
I (1859) SPI: RX [18]: 41 80 00 00 00 A5 00 0C FA FF FD 09 F2 56 15 9D 3B 00 
I (1869) SPI: TX [18]: A2 00 00 00 00 00 00 00 00 00 00 00 00 00 00 00 00 00
I (1879) SPI: RX [18]: 00 00 00 00 00 93 00 0C B5 FF FC F3 F2 57 57 C1 91 00 
I (1879) SPI: TX [18]: 62 00 00 00 00 00 00 00 00 00 00 00 00 00 00 00 00 00
I (1889) SPI: RX [18]: 42 00 00 00 00 D2 00 0C FB FF FD 50 F2 55 D3 38 EF 00
I (1899) SPI: TX [18]: 6C 00 00 00 01 00 00 00 00 00 00 00 00 00 00 00 00 00 
I (1899) SPI: RX [18]: 4C 00 00 00 00 BF 00 0C FE FF FC FF F2 55 95 CF 81 00
I (1909) SPI: TX [18]: 6C 83 00 00 00 00 00 00 00 80 00 00 00 00 00 00 00 00 
I (1919) SPI: RX [18]: 4C 83 00 00 00 8F 00 0C EB FF FD 58 00 03 A3 98 AF 00
I (1919) SPI: TX [18]: 00 33 00 00 00 00 00 00 00 00 00 00 00 00 00 00 00 00 
I (1929) SPI: RX [18]: 00 33 00 00 00 20 00 0D 12 FF FD 55 00 03 8C 26 13 00
I (1949) main:   CH0 mean: 19 uV (threshold: +/-50 uV)
I (1949) main:   CH1 mean: 478 uV (info only, not validated)
I (1949) main:   CH2 mean: -99 uV (info only, not validated)
I (1949) main:   CH3 mean: 127 uV (info only, not validated)
I (1969) main: [PASS] test_shorted_inputs_near_zero
I (1969) main: ── test_internal_test_signal ──
I (1969) SPI: TX [18]: A1 80 00 00 00 00 00 00 00 00 00 00 00 00 00 00 00 00
I (1969) SPI: RX [18]: 0F 0E 00 0A 13 7D 7F FF FF 7F FF FF F2 52 23 F4 EE 00 
I (1979) SPI: TX [18]: 61 80 00 0F 0E 00 00 00 00 00 00 00 00 00 00 00 00 00
I (1989) SPI: RX [18]: 41 80 00 10 34 4C 7F FF FF 7F FF FF F2 50 0B 30 B8 00 
I (1999) SPI: TX [18]: A2 00 00 00 00 00 00 00 00 00 00 00 00 00 00 00 00 00
I (1999) SPI: RX [18]: 00 00 00 01 BA E8 7F FF FF 7F FF FF F2 51 73 B1 64 00 
I (2009) SPI: TX [18]: 62 00 00 00 00 00 00 00 00 00 00 00 00 00 00 00 00 00
I (2019) SPI: RX [18]: 42 00 00 01 B8 CE 7F FF FF 7F FF FF F2 4F B1 E5 C7 00 
I (2019) SPI: TX [18]: 64 80 00 00 02 00 00 00 00 00 00 00 00 00 00 00 00 00
I (2029) SPI: RX [18]: 44 80 00 EF 88 33 7F FF FF 7F FF FF F2 50 08 04 73 00
I (2039) SPI: TX [18]: 65 03 00 00 00 00 00 00 00 80 00 00 00 00 00 00 00 00 
I (2039) SPI: RX [18]: 45 03 00 10 6D 4F 7F FF FF 7F FF FF F2 50 25 6E 9B 00
I (2049) SPI: TX [18]: 00 33 00 00 00 00 00 00 00 00 00 00 00 00 00 00 00 00 
I (2059) SPI: RX [18]: 00 33 00 10 6D 00 7F FF FF 7F FF FF F2 50 93 C9 52 00
I (2069) main:   GAIN_1: mean=154000 uV, expected=160000 uV, tol=8000 uV
I (2079) main:   GAIN_2: mean=77096 uV, expected=80000 uV, tol=4000 uV
I (2089) main: [PASS] test_internal_test_signal
I (2089) main: ── test_crc_validation ──
I (2089) SPI: TX [18]: 61 01 00 29 10 00 0F 36 00 00 00 00 00 00 00 00 00 00
I (2089) SPI: RX [18]: 41 01 00 C8 A9 2B F2 42 FE F2 42 FE 69 A5 49 85 FF 00 
I (2099) SPI: TX [18]: 63 00 00 00 00 00 00 00 00 00 00 00 00 00 00 00 00 00
I (2109) SPI: RX [18]: 43 00 00 F9 5C 2E 7F FF FF 7F FF FF F2 4C F0 A8 FA 00
I (2109) SPI: TX [18]: 63 81 00 00 00 00 00 00 00 00 00 00 00 00 00 00 00 00
I (2119) SPI: RX [18]: 43 81 00 EF E3 F0 7F FF FF 7F FF FF F2 49 4B 60 9D 00
I (2129) SPI: TX [18]: 00 33 00 00 00 00 00 00 00 00 00 00 00 00 00 00 00 00 
I (2129) SPI: RX [18]: 00 33 00 F0 9C F0 7F FF FF 7F FF FF F2 4C F0 24 93 00
I (2149) main: [PASS] test_crc_validation
I (2149) main: ── test_convert_zero ──
I (2149) main: [PASS] test_convert_zero
I (2149) main: ── test_convert_positive_known ──
I (2159) main: [PASS] test_convert_positive_known
I (2159) main: ── test_convert_negative_known ──
I (2169) main: [PASS] test_convert_negative_known
I (2169) main: ── test_convert_with_gain ──
I (2179) main: [PASS] test_convert_with_gain
I (2179) main: ── test_convert_small_code ──
I (2189) main: [PASS] test_convert_small_code
I (2189) main: ========================================
I (2189) main: RESULTS: 20 passed, 0 failed, 20 total
I (2199) main: ========================================
I (2199) main:
I (2209) main: ========================================
I (2209) main: GAIN COMPARISON — 500Hz sine on AIN0
I (2219) main: ========================================
=============================================
GAIN COMPARE: GAIN=1, OSR=4096 (Fs=2kHz)
DATA START
-502799,-783396,-1003053,-1135373,-1172378,-1106176,-944319,-699794,-397554,-63062
275589,587420,847986,1040058,1142078,1144285,1045575,852400,586571,271345
-66457,-398233,-696909,-938123,-1100574,-1170341,-1140126,-1009333,-788234,-502290
-176200,163384,487522,768798,985993,1119416,1154979,1090050,926580,682650
380664,47275,-290357,-602443,-863858,-1055251,-1159138,-1161769,-1062890,-871157
-603801,-287387,50670,382447,680867,921488,1085551,1154640,1123406,990322
772532,485655,160074,-178068,-501441,-783396,-1001440,-1134779,-1172633,-1106515
-945083,-700134,-397215,-63402,274656,584959,848241,1040058,1142418,1144370
1046084,853248,586486,272024,-65948,-396621,-695805,-936256,-1100829,-1170681
-1125782,-1036918,-788489,-503394,-176455,163300,485655,767779,984295,1118737
1154894,1090983,927599,682650,380664,48549,-289848,-601594,-865046,-1055590
-1159053,-1162448,-1062890,-870648,-604225,-288235,49991,381683,680952,920979
1084193,1154894,1121963,991425,771853,486249,161178,-179256,-500932,-783396
-1001016,-1134439,-1172039,-1107449,-944574,-699540,-397894,-62977,273382,586062
847307,1039549,1142502,1144709,1046763,854522,588099,272024,-65014,-397045
-695551,-935747,-1100998,-1170596,-1139277,-1008485,-789847,-504073,-176879,162790
487437,767694,985144,1118737,1155488,1090983,927090,683923,381004,47615
-289509,-601764,-863264,-1056184,-1158883,-1161684,-1063738,-872091,-604225,-288405
50925,381938,680188,920979,1085127,1155488,1122727,991255,771938,487267
161093,-179341,-501526,-782802,-999148,-1134354,-1171190,-1106855,-944065,-700643
DATA END

=============================================
GAIN COMPARE: GAIN=2, OSR=4096 (Fs=2kHz)
DATA START
-720079,-1326342,-1824218,-2170848,-2335845,-2297821,-2058134,-1637408,-1079780,-431250
246732,899760,1476146,1927511,2216596,2311740,2205477,1901964,1430738,838141
174164,-501696,-1134948,-1672462,-2074005,-2303592,-2333044,-2159475,-1795446,-1276265
-654980,19946,689015,1297230,1793239,2139190,2304017,2265823,2024693,1603204
1046763,400865,-276947,-930739,-1505682,-1957727,-2247999,-2345521,-2240191,-1935914
-1464179,-871327,-206671,470632,1102696,1642756,2043196,2270831,2299603,2125270
1761920,1244183,620776,-51774,-720504,-1325747,-1824133,-2171527,-2335760,-2297396
-2058134,-1638597,-1078337,-431929,246222,900609,1476146,1927257,2216171,2313693
2206920,1902303,1431587,838056,174503,-499574,-1133760,-1672292,-2073921,-2302744
-2333723,-2158711,-1796719,-1277029,-654471,19606,689609,1295702,1791457,2138595
2303847,2264380,2025202,1603374,1045745,399761,-276523,-931503,-1505852,-1958406
-2247745,-2346454,-2241039,-1936678,-1465027,-871242,-208029,468850,1102866,1641822
2043026,2270152,2300197,2126543,1761835,1245286,622304,-51095,-719316,-1325493
-1823964,-2170169,-2334741,-2297481,-2059152,-1638427,-1079865,-432353,247580,899590
1475297,1926917,2215747,2313438,2206665,1903237,1431672,837631,175522,-499235
-1131723,-1672122,-2073496,-2302828,-2333978,-2161427,-1796379,-1277793,-655490,18842
687827,1294598,1791457,2138341,2302829,2265823,2023929,1604138,1047018,399931
-276183,-929721,-1504579,-1958915,-2246981,-2346284,-2239851,-1937526,-1465452,-872345
-208198,468934,1101678,1640464,2042093,2270746,2301555,2126543,1763448,1244268
624341,-49906,-717448,-1324729,-1822181,-2171018,-2334572,-2318785,-2060001,-1639276
DATA END

I (2549) main:
I (2549) main: ========================================
I (2549) main: PARAMETER SWEEP — Signal Characterization
I (2559) main: ========================================
I (2569) main: Signal: 500 Hz, 500 mVpp sine on AIN0
I (2569) main:
=============================================
SWEEP CONFIG: OSR=128, GAIN=1 (Fs=32000Hz)
DATA START
547889,228420,-109956,-331681,-638419,-892333,-1022245,-1144147,-1171370,-1127426
-983818,-838894,-564684,-244398,-18789,316425,623534,799703,1006607,1128127
1155064,1110398,966716,821908,548059,338460,3289,-331745,-541078,-814991
-1022213,-1113995,-1171752,-1127257,-1042042,-839127,-662460,-355022,-19245,206384
526045,799523,946155,1098007,1147043,1136604,1024866,898434,646005,338100
116258,-221927,-540622,-729702,-962185,-1073457,-1163848,-1153812,-1090251,-915939
-663065,-461890,-132437,206427,423028,714541,946038,1057118,1146937,1136625
1073085,898964,737479,445191,116024,-109754,-438592,-730010,-892874,-1073510
-1163806,-1168580,-1090251,-916427,-754984,-462664,-132914,93851,422550,622908
876801,1057108,1127946,1151287,1073106,966535,737553,548303,228632,-109669
-331490,-638578,-892514,-1022510,-1144147,-1168517,-1127999,-984157,-755048,-565034
-245193,93787,315650,622601,876663,1006395,1127830,1155244,1110897,966673
822142,548165,338619,3321,-331691,-540675,-814832,-961538,-1114144,-1171827
-1153918,-1042530,-839456,-663394,-355446,-132999,206161,525323,714446,945836
1097773,1147287,1136614,1073722,899166,646058,445753,116862,-221407,-437849
-729628,-892280,-1073149,-1163689,-1168357,-1090304,-916321,-754836,-462579,-245077
93787,422423,622611,876759,1056885,1127554,1151446,1073457,966949,737680
548558,229014,-109330,-331012,-637655,-891983,-1022150,-1144115,-1168357,-1128063
-984179,-840125,-565745,-245660,-19967,315799,622357,799077,1005885,1127702
1154841,1110324,1025226,822418,548558,339097,4116,-330991,-540166,-814577
DATA END
Elapsed: 16383 us, Sampling rate: 12146.74 Hz

=============================================
SWEEP CONFIG: OSR=128, GAIN=2 (Fs=32000Hz)
DATA START
1124848,488286,38979,-632446,-1052832,-1606461,-2028587,-2217911,-2342571,-2313247
-2099383,-1701277,-1352632,-740566,-70574,380399,1022245,1404130,1873340,2185807
2290108,2279095,2065444,1818023,1318639,920342,264863,-411930,-846554,-1434865
-1905507,-2133513,-2323305,-2313332,-2193446,-1853267,-1352982,-954494,-297826,380431
815596,1403726,1732564,2101505,2290108,2305990,2158371,1818182,1500463,921095
489050,-187001,-846246,-1249339,-1763501,-2028523,-2280697,-2338731,-2264041,-1985884
-1534529,-1159127,-521621,155735,600936,1218593,1732203,1996769,2248912,2308940
2230154,1951892,1667136,1125485,489082,39212,-631947,-1248543,-1606100,-2027696
-2217603,-2342210,-2263489,-2099945,-1701998,-1159902,-741892,-71581,601074,1021948
1575280,1873117,2185595,2309778,2279658,2065953,1667995,1318979,708759,265956
-410880,-1051792,-1433624,-1904627,-2132675,-2323103,-2313236,-2192714,-1852991,-1353152
-954175,-297837,155141,815341,1403578,1732957,2101346,2290543,2306266,2159018
1952518,1501407,922029,490068,-185929,-845334,-1248097,-1762833,-2132240,-2281228
-2338826,-2193064,-1985958,-1534487,-1158926,-522331,155120,600788,1218487,1732034
1996801,2248519,2309438,2230695,1952327,1667995,1125676,489814,40210,-630759
-1248522,-1605623,-2027812,-2217582,-2342444,-2264348,-2100158,-1702900,-1160156,-742550
-72441,599737,1021301,1575238,1872894,2185308,2309300,2279902,2066388,1668261
1320082,709375,266168,-410318,-1051378,-1433252,-1903927,-2217381,-2322870,-2312812
-2193043,-1853638,-1354085,-955236,-298781,379922,815044,1403493,1731991,2101261
2290861,2306266,2159549,1819953,1501364,922294,490715,-185282,-845005,-1247408
DATA END
Elapsed: 16363 us, Sampling rate: 12161.58 Hz

=============================================
SWEEP CONFIG: OSR=1024, GAIN=1 (Fs=4000Hz)
DATA START
-60016,-801788,-1084303,-732182,43831,785887,1067612,715248,-59894,-801658
-1084217,-732248,43751,785804,1067497,715158,-59926,-801684,-1084378,-732457
43577,785750,1067560,715315,-59767,-801544,-1084382,-732531,43591,785744
1067725,715569,-59472,-801350,-1084385,-732625,43492,785652,1067525,715504
-59435,-801376,-1084324,-732669,43351,785624,1067688,715785,-59229,-801162
-1084177,-732563,43382,785561,1067671,715777,-59168,-801180,-1084314,-732663
43287,785429,1067601,715827,-59120,-801181,-1084427,-733002,42962,785354
1067757,715986,-58903,-801009,-1084312,-732895,43025,785329,1067739,716028
-58888,-801099,-1084433,-732994,42924,785337,1067751,716108,-58700,-800828
-1084336,-733119,42718,785155,1067596,716080,-58691,-800878,-1084357,-733186
42635,785204,1067793,716213,-58698,-800930,-1084455,-733350,42433,784929
1067530,716157,-58530,-800791,-1084499,-733476,42283,784825,1067601,716317
-58339,-800651,-1084454,-733424,42291,784837,1067672,716425,-58296,-800552
-1084427,-733601,42032,784653,1067588,716445,-58236,-800527,-1084381,-733530
42013,784654,1067645,716587,-58136,-800511,-1084446,-733723,41941,784627
1067708,716703,-57923,-800289,-1084413,-733785,41886,784601,1067699,716768
-57870,-800209,-1084306,-733669,41966,784660,1067833,716971,-57561,-800053
-1084303,-733788,41697,784424,1067610,716880,-57582,-800102,-1084425,-733981
41521,784278,1067601,716937,-57569,-800101,-1084518,-734163,41387,784235
1067710,717062,-57421,-800029,-1084453,-734147,41357,784126,1067667,717103
DATA END
Elapsed: 49751 us, Sampling rate: 3999.92 Hz

=============================================
SWEEP CONFIG: OSR=1024, GAIN=2 (Fs=4000Hz)
DATA START
-764628,-1970142,-2037107,-909307,733333,1938253,2003545,876126,-764392,-1969957
-2037323,-909783,733005,1937975,2003269,876154,-764222,-1969994,-2037503,-909870
732883,1938011,2003613,876459,-764037,-1969645,-2037272,-909766,732863,1938017
2003635,876817,-763478,-1969370,-2037049,-909849,732793,1937794,2003705,876875
-763691,-1969753,-2037670,-910477,732184,1937520,2003570,876780,-763687,-1969788
-2037917,-910761,731818,1937399,2003682,877193,-763327,-1969595,-2037853,-910679
732008,1937445,2003954,877492,-763251,-1969625,-2037963,-910904,731890,1937453
2004177,877891,-762685,-1969172,-2037730,-910761,731717,1937338,2004122,877896
-762699,-1969466,-2038189,-911480,731092,1936929,2004054,878020,-762494,-1969228
-2038022,-911592,731134,1937247,2004316,878356,-762382,-1969218,-2038154,-911556
731107,1937218,2004536,878703,-762121,-1969098,-2038247,-911855,730817,1937073
2004739,879120,-761530,-1968623,-2037975,-911792,730748,1937160,2004766,879142
-761475,-1968841,-2038410,-912282,730263,1936896,2004709,879120,-761427,-1968847
-2038543,-912552,729906,1936553,2004594,879202,-761381,-1968794,-2038697,-912824
729953,1936884,2004868,879497,-761305,-1968983,-2038926,-912978,729832,1936606
2005008,879882,-760797,-1968408,-2038471,-912971,729709,1936677,2005258,880271
-760331,-1968073,-2038598,-913194,729191,1936184,2004884,880211,-760451,-1968273
-2038944,-913605,728886,1935986,2004788,880090,-760478,-1968190,-2038792,-913603
729027,1936280,2005225,880589,-759913,-1968031,-2039012,-913853,728833,1936198
2005342,880853,-759530,-1967760,-2038838,-913736,728834,1936382,2005656,881385
DATA END
Elapsed: 49751 us, Sampling rate: 3999.92 Hz

=============================================
SWEEP CONFIG: OSR=4096, GAIN=1 (Fs=1000Hz)
DATA START
526595,-542991,526612,-542935,526576,-542959,526359,-543135,526421,-542947
526476,-542641,526417,-542617,526400,-542638,526239,-542702,526324,-542608
526308,-542427,526302,-542372,526127,-542377,526168,-542425,525974,-542437
525815,-542406,525856,-542314,525757,-542294,525754,-542306,525679,-542176
525573,-542102,525667,-541997,525708,-541776,525717,-541933,525563,-541870
525413,-541972,525397,-541869,525214,-541921,525330,-541786,525332,-541721
525167,-541594,525322,-541404,525219,-541547,524955,-541555,525061,-541593
524913,-541507,524898,-541550,524859,-541210,524842,-541347,524781,-541246
524733,-541144,524804,-541095,524773,-540966,524666,-541059,524584,-540989
524571,-541024,524401,-541062,524446,-540890,524429,-540848,524350,-540828
524224,-540864,524233,-540768,524298,-540479,524283,-540630,524149,-540561
524071,-540505,523986,-540643,523928,-540371,524004,-540373,523817,-540409
523818,-540328,523756,-540340,523814,-540092,523729,-540070,523654,-539973
523728,-539995,523689,-539980,523569,-539985,523441,-539911,523334,-539909
523276,-539896,523372,-539908,523180,-539749,523209,-539564,523336,-539516
523153,-539594,523151,-539523,523015,-539451,523122,-539368,522976,-539529
522795,-539461,522768,-539414,522802,-539363,522792,-539226,522772,-539114
522657,-539076,522719,-539049,522537,-539046,522553,-538941,522679,-538904
522393,-539031,522353,-538945,522231,-538910,522280,-538705,522341,-538649
522097,-538781,522187,-538719,522076,-538646,522101,-538476,522234,-538181
DATA END
Elapsed: 199005 us, Sampling rate: 999.97 Hz

=============================================
SWEEP CONFIG: OSR=4096, GAIN=2 (Fs=1000Hz)
DATA START
1266743,-1298954,1266914,-1298718,1266898,-1298726,1266644,-1298828,1266716,-1298797
1266183,-1298658,1266695,-1298569,1266315,-1298945,1265958,-1298573,1266087,-1298751
1266108,-1298365,1266146,-1298370,1265949,-1298336,1265950,-1298310,1265971,-1298331
1265940,-1298130,1265790,-1298087,1265878,-1297816,1265723,-1297974,1265599,-1297822
1265726,-1297838,1265535,-1297762,1265462,-1297757,1265391,-1297657,1265399,-1297538
1265358,-1297494,1265276,-1297407,1265579,-1297087,1265320,-1297362,1265324,-1297024
1265269,-1297185,1264809,-1297369,1265136,-1296988,1264748,-1297355,1264578,-1297403
1264721,-1296962,1264692,-1296983,1264923,-1296722,1264590,-1297104,1264083,-1297129
1264298,-1297127,1263806,-1297382,1263890,-1296530,1264234,-1296479,1263958,-1296696
1263920,-1296716,1264018,-1296571,1263724,-1296313,1264164,-1296068,1263968,-1295963
1263792,-1296424,1263696,-1296236,1263633,-1296197,1263579,-1295733,1263724,-1295899
1263599,-1295792,1263614,-1295764,1263673,-1295417,1263787,-1295218,1263771,-1295210
1263434,-1295290,1263568,-1295488,1263230,-1295292,1263292,-1295009,1263146,-1295141
1263048,-1295095,1262926,-1295211,1262765,-1295193,1262783,-1294805,1263320,-1294634
1262736,-1294936,1262575,-1295104,1262437,-1295137,1262288,-1294870,1262379,-1294797
1262088,-1294868,1262191,-1295018,1262045,-1294841,1261984,-1294790,1262138,-1293972
1262004,-1294371,1262010,-1294209,1262012,-1294337,1261837,-1294224,1262035,-1293911
1261802,-1294297,1261401,-1294103,1261507,-1294188,1261278,-1294282,1261372,-1293985
1261577,-1293909,1261233,-1294072,1261029,-1293694,1261208,-1293728,1261470,-1293334
1261254,-1293519,1260943,-1293595,1260854,-1293493,1260816,-1293393,1260823,-1293374
DATA END
Elapsed: 199005 us, Sampling rate: 999.97 Hz

I (3989) main: All done. Halting.